
T240C 000:155 SEGGER J-Link V4.62 Log File (0001ms, 0156ms total)
T240C 000:155 DLL Compiled: Jan 25 2013 15:19:47 (0001ms, 0156ms total)
T240C 000:155 Logging started @ 2015-05-26 17:27 (0001ms, 0156ms total)
T240C 000:156 JLINK_SetWarnOutHandler(...) (0000ms, 0156ms total)
T240C 000:156 JLINK_OpenEx(...)
Firmware: J-Link ARM V8 compiled Nov 14 2012 22:34:52
Hardware: V8.00
S/N: 17935099
Feature(s): RDI,FlashDL,FlashBP,JFlash  returns O.K. (0023ms, 0179ms total)
T240C 000:179 JLINK_SetErrorOutHandler(...) (0000ms, 0179ms total)
T240C 000:179 JLINK_ExecCommand("ProjectFile = "C:\Users\Administrator\Desktop\±ÏÉèÔ´´úÂë\USER\JLinkSettings.ini"", ...)  returns 0x00 (0002ms, 0181ms total)
T240C 000:184 JLINK_ExecCommand("Device = STM32F103ZE", ...)
                JLINK_ExecCommand("map ram 0x20000000 - 0x2000FFFF", ...)  returns 0x00 (0000ms, 0000ms total)
                JLINK_AddMirrorAreaEx(Addr = 0x00000000, Size = 0x00000000) (0000ms, 0000ms total)
              Device "STM32F103ZE" selected (512 KB flash, 64 KB RAM).  returns 0x00 (0004ms, 0185ms total)
T240C 000:188 JLINK_ExecCommand("DisableConnectionTimeout", ...)  returns 0x00 (0000ms, 0185ms total)
T240C 000:188 JLINK_TIF_Select(JLINKARM_TIF_SWD)  returns 0x00 (0005ms, 0190ms total)
T240C 000:193 JLINK_SetSpeed(10000) (0000ms, 0190ms total)
T240C 000:193 JLINK_GetHardwareVersion()  returns 0x13880 (0000ms, 0190ms total)
T240C 000:193 JLINK_GetDLLVersion()  returns 46200 (0000ms, 0190ms total)
T240C 000:193 JLINK_GetFirmwareString(...) (0000ms, 0190ms total)
T240C 000:199 JLINK_GetDLLVersion()  returns 46200 (0000ms, 0190ms total)
T240C 000:199 JLINK_GetCompileDateTime() (0000ms, 0190ms total)
T240C 000:201 JLINK_GetFirmwareString(...) (0000ms, 0190ms total)
T240C 000:202 JLINK_GetHardwareVersion()  returns 0x13880 (0000ms, 0190ms total)
T240C 000:207 JLINK_GetId() >0x108 TIF>Found SWD-DP with ID 0x1BA01477 >0x0D TIF> >0x28 TIF> >0x0D TIF> >0x28 TIF> >0x0D TIF> >0x21 TIF> >0x0D TIF> >0x28 TIF> >0x0D TIF> >0x28 TIF> >0x0D TIF> >0x28 TIF> >0x0D TIF> >0x21 TIF> >0x0D TIF> >0x21 TIF> >0x0D TIF> >0x28 TIF> >0x0D TIF> >0x21 TIF> >0x0D TIF> >0x21 TIF> >0x0D TIF> >0x28 TIF> >0x0D TIF> >0x28 TIF> >0x108 TIF>Found SWD-DP with ID 0x1BA01477 >0x0D TIF> >0x21 TIF> >0x0D TIF> >0x28 TIF> >0x0D TIF> >0x28 TIF> >0x0D TIF> >0x21 TIF> >0x0D TIF> >0x21 TIF>
 >0x0D TIF> >0x28 TIF> >0x0D TIF> >0x21 TIF> >0x0D TIF> >0x21 TIF> >0x0D TIF> >0x21 TIF> >0x0D TIF> >0x21 TIF> >0x0D TIF> >0x21 TIF> >0x0D TIF> >0x28 TIF> >0x0D TIF> >0x28 TIF> >0x0D TIF> >0x21 TIF> >0x0D TIF> >0x21 TIF> >0x0D TIF> >0x28 TIF> >0x0D TIF> >0x21 TIF> >0x0D TIF> >0x21 TIF> >0x0D TIF> >0x28 TIF> >0x0D TIF> >0x28 TIF> >0x0D TIF> >0x28 TIF> >0x0D TIF> >0x21 TIF> >0x0D TIF> >0x21 TIF> >0x0D TIF> >0x28 TIF> >0x0D TIF> >0x28 TIF> >0x0D TIF> >0x28 TIF> >0x0D TIF> >0x28 TIF> >0x0D TIF> >0x28 TIF>
 >0x0D TIF> >0x21 TIF> >0x0D TIF> >0x21 TIF> >0x0D TIF> >0x21 TIF>TPIU fitted.ETM fitted. >0x0D TIF> >0x28 TIF> >0x0D TIF> >0x21 TIF> >0x0D TIF> >0x21 TIF> >0x0D TIF> >0x28 TIF> >0x0D TIF> >0x21 TIF> >0x0D TIF> >0x21 TIF>FPUnit: 6 code (BP) slots and 2 literal slots >0x0D TIF> >0x28 TIF> >0x0D TIF> >0x21 TIF> >0x0D TIF> >0x21 TIF> >0x0D TIF> >0x28 TIF> >0x0D TIF> >0x28 TIF> >0x0D TIF> >0x28 TIF> >0x0D TIF> >0x21 TIF> >0x0D TIF> >0x21 TIF> >0x0D TIF> >0x28 TIF> >0x0D TIF> >0x21 TIF> >0x0D TIF> >0x21 TIF>
 >0x0D TIF> >0x28 TIF> >0x0D TIF> >0x21 TIF> >0x0D TIF> >0x21 TIF>Found Cortex-M3 r1p1, Little endian. >0x0D TIF> >0x21 TIF>  returns 0x1BA01477 (0156ms, 0346ms total)
T240C 000:363 JLINK_GetDeviceFamily()  returns 3 (0000ms, 0346ms total)
T240C 000:365 JLINK_ReadMem (0xE00FFFF0, 0x0010 Bytes, ...) -- CPU is running -- CPU_ReadMem(16 bytes @ 0xE00FFFF0) -- Data:  0D 00 00 00 10 00 00 00 05 00 00 00 B1 00 00 00  returns 0x00 (0002ms, 0348ms total)
T240C 000:367 JLINK_ReadMem (0xE00FFFD0, 0x0020 Bytes, ...) -- CPU is running -- CPU_ReadMem(32 bytes @ 0xE00FFFD0) -- Data:  00 00 00 00 00 00 00 00 00 00 00 00 00 00 00 00 ...  returns 0x00 (0001ms, 0349ms total)
T240C 000:368 JLINK_ReadMem (0xE00FF000, 0x0018 Bytes, ...) -- CPU is running -- CPU_ReadMem(24 bytes @ 0xE00FF000) -- Data:  03 F0 F0 FF 03 20 F0 FF 03 30 F0 FF 03 10 F0 FF ...  returns 0x00 (0002ms, 0351ms total)
T240C 000:370 JLINK_ReadMemU32(0xE000ED00, 0x0001 Items, ...) -- CPU is running -- CPU_ReadMem(4 bytes @ 0xE000ED00) -- Data:  31 C2 1F 41  returns 0x01 (0001ms, 0352ms total)
T240C 000:371 JLINK_SetResetType(JLINKARM_RESET_TYPE_NORMAL)  returns JLINKARM_RESET_TYPE_NORMAL (0000ms, 0352ms total)
T240C 000:371 JLINK_Reset() -- CPU is running -- CPU_WriteMem(4 bytes @ 0xE000EDF0) -- CPU is running -- CPU_WriteMem(4 bytes @ 0xE000EDFC) >0x35 TIF> -- CPU is running -- CPU_WriteMem(4 bytes @ 0xE000ED0C) -- CPU is running -- CPU_ReadMem(4 bytes @ 0xE000EDF0) -- CPU is running -- CPU_ReadMem(4 bytes @ 0xE000EDF0) -- CPU is running -- CPU_WriteMem(4 bytes @ 0xE000EDF0) -- CPU is running -- CPU_WriteMem(4 bytes @ 0xE000EDFC) -- CPU is running -- CPU_ReadMem(4 bytes @ 0xE000EDF0)
 -- CPU_WriteMem(4 bytes @ 0xE0002000) (0024ms, 0376ms total)
T240C 000:395 JLINK_Halt()  returns 0x00 (0000ms, 0376ms total)
T240C 000:395 JLINK_IsHalted()  returns TRUE (0000ms, 0376ms total)
T240C 000:395 JLINK_ReadMemU32(0xE000EDF0, 0x0001 Items, ...) -- CPU_ReadMem(4 bytes @ 0xE000EDF0) -- Data:  03 00 03 00  returns 0x01 (0001ms, 0377ms total)
T240C 000:396 JLINK_WriteU32(0xE000EDF0, 0xA05F0003) -- CPU_WriteMem(4 bytes @ 0xE000EDF0)  returns 0x00 (0002ms, 0379ms total)
T240C 000:398 JLINK_WriteU32(0xE000EDFC, 0x01000000) -- CPU_WriteMem(4 bytes @ 0xE000EDFC)  returns 0x00 (0001ms, 0380ms total)
T240C 000:404 JLINK_GetHWStatus(...)  returns 0x00 (0001ms, 0381ms total)
T240C 000:409 JLINK_GetNumBPUnits(Type = 0xFFFFFF00)  returns 0x06 (0000ms, 0381ms total)
T240C 000:409 JLINK_GetNumBPUnits(Type = 0xF0)  returns 0x2000 (0000ms, 0381ms total)
T240C 000:409 JLINK_GetNumWPUnits()  returns 0x04 (0000ms, 0381ms total)
T240C 000:415 JLINK_GetSpeed()  returns 0xFA0 (0000ms, 0381ms total)
T240C 000:418 JLINK_ReadMemU32(0xE000E004, 0x0001 Items, ...) -- CPU_ReadMem(4 bytes @ 0xE000E004) -- Data:  01 00 00 00  returns 0x01 (0001ms, 0382ms total)
T240C 000:419 JLINK_ReadMemU32(0xE000E004, 0x0001 Items, ...) -- CPU_ReadMem(4 bytes @ 0xE000E004) -- Data:  01 00 00 00  returns 0x01 (0001ms, 0383ms total)
T240C 000:420 JLINK_WriteMem(0xE0001000, 0x001C Bytes, ...) -- Data:  01 00 00 00 00 00 00 00 00 00 00 00 00 00 00 00 ... -- CPU_WriteMem(28 bytes @ 0xE0001000)  returns 0x1C (0001ms, 0384ms total)
T240C 000:421 JLINK_ReadMem (0xE0001000, 0x001C Bytes, ...) -- CPU_ReadMem(28 bytes @ 0xE0001000) -- Data:  01 00 00 40 00 00 00 00 00 00 00 00 00 00 00 00 ...  returns 0x00 (0002ms, 0386ms total)
T240C 000:423 JLINK_Halt()  returns 0x00 (0000ms, 0386ms total)
T240C 000:423 JLINK_IsHalted()  returns TRUE (0000ms, 0386ms total)
T240C 000:564 JLINK_WriteMem(0x20000000, 0x0164 Bytes, ...) -- Data:  00 BE 0A E0 0D 78 2D 06 68 40 08 24 40 00 00 D3 ... -- CPU_WriteMem(356 bytes @ 0x20000000)  returns 0x164 (0005ms, 0391ms total)
T240C 000:569 JLINK_WriteReg(R0, 0x08000000)  returns 0x00 (0000ms, 0391ms total)
T240C 000:569 JLINK_WriteReg(R1, 0x007A1200)  returns 0x00 (0000ms, 0391ms total)
T240C 000:569 JLINK_WriteReg(R2, 0x00000001)  returns 0x00 (0000ms, 0391ms total)
T240C 000:569 JLINK_WriteReg(R3, 0x00000000)  returns 0x00 (0000ms, 0391ms total)
T240C 000:569 JLINK_WriteReg(R4, 0x00000000)  returns 0x00 (0000ms, 0391ms total)
T240C 000:569 JLINK_WriteReg(R5, 0x00000000)  returns 0x00 (0000ms, 0391ms total)
T240C 000:569 JLINK_WriteReg(R6, 0x00000000)  returns 0x00 (0000ms, 0391ms total)
T240C 000:569 JLINK_WriteReg(R7, 0x00000000)  returns 0x00 (0000ms, 0391ms total)
T240C 000:569 JLINK_WriteReg(R8, 0x00000000)  returns 0x00 (0000ms, 0391ms total)
T240C 000:569 JLINK_WriteReg(R9, 0x20000160)  returns 0x00 (0000ms, 0391ms total)
T240C 000:569 JLINK_WriteReg(R10, 0x00000000)  returns 0x00 (0000ms, 0391ms total)
T240C 000:569 JLINK_WriteReg(R11, 0x00000000)  returns 0x00 (0000ms, 0391ms total)
T240C 000:569 JLINK_WriteReg(R12, 0x00000000)  returns 0x00 (0000ms, 0391ms total)
T240C 000:569 JLINK_WriteReg(R13, 0x20000800)  returns 0x00 (0000ms, 0391ms total)
T240C 000:569 JLINK_WriteReg(R14, 0x20000001)  returns 0x00 (0001ms, 0392ms total)
T240C 000:570 JLINK_WriteReg(R15, 0x20000038)  returns 0x00 (0000ms, 0392ms total)
T240C 000:570 JLINK_WriteReg(XPSR, 0x01000000)  returns 0x00 (0000ms, 0392ms total)
T240C 000:570 JLINK_WriteReg(MSP, 0x20000800)  returns 0x00 (0000ms, 0392ms total)
T240C 000:570 JLINK_WriteReg(PSP, 0x20000800)  returns 0x00 (0000ms, 0392ms total)
T240C 000:570 JLINK_WriteReg(CFBP, 0x00000000)  returns 0x00 (0000ms, 0392ms total)
T240C 000:570 JLINK_SetBPEx(Addr = 0x20000000, Type = 0xFFFFFFF2) -- CPU_ReadMem(2 bytes @ 0x20000000)  returns 0x00000001 (0002ms, 0394ms total)
T240C 000:572 JLINK_Go() -- CPU_WriteMem(2 bytes @ 0x20000000) -- CPU_WriteMem(4 bytes @ 0xE0002008) -- CPU_WriteMem(4 bytes @ 0xE000200C) -- CPU_WriteMem(4 bytes @ 0xE0002010) -- CPU_WriteMem(4 bytes @ 0xE0002014) -- CPU_WriteMem(4 bytes @ 0xE0002018) -- CPU_WriteMem(4 bytes @ 0xE000201C) (0020ms, 0414ms total)
T240C 000:592 JLINK_IsHalted() -- CPU_ReadMem(2 bytes @ 0x20000000)  returns TRUE (0008ms, 0422ms total)
T240C 000:600 JLINK_ReadReg(R15)  returns 0x20000000 (0000ms, 0414ms total)
T240C 000:600 JLINK_ClrBPEx(BPHandle = 0x00000001)  returns 0x00 (0000ms, 0414ms total)
T240C 000:600 JLINK_ReadReg(R0)  returns 0x00000000 (0000ms, 0414ms total)
T240C 000:601 JLINK_WriteReg(R0, 0x08000000)  returns 0x00 (0000ms, 0414ms total)
T240C 000:601 JLINK_WriteReg(R1, 0x007A1200)  returns 0x00 (0000ms, 0414ms total)
T240C 000:601 JLINK_WriteReg(R2, 0x00000001)  returns 0x00 (0000ms, 0414ms total)
T240C 000:601 JLINK_WriteReg(R3, 0x00000000)  returns 0x00 (0000ms, 0414ms total)
T240C 000:601 JLINK_WriteReg(R4, 0x00000000)  returns 0x00 (0000ms, 0414ms total)
T240C 000:601 JLINK_WriteReg(R5, 0x00000000)  returns 0x00 (0000ms, 0414ms total)
T240C 000:601 JLINK_WriteReg(R6, 0x00000000)  returns 0x00 (0000ms, 0414ms total)
T240C 000:601 JLINK_WriteReg(R7, 0x00000000)  returns 0x00 (0000ms, 0414ms total)
T240C 000:601 JLINK_WriteReg(R8, 0x00000000)  returns 0x00 (0001ms, 0415ms total)
T240C 000:602 JLINK_WriteReg(R9, 0x20000160)  returns 0x00 (0000ms, 0415ms total)
T240C 000:602 JLINK_WriteReg(R10, 0x00000000)  returns 0x00 (0000ms, 0415ms total)
T240C 000:602 JLINK_WriteReg(R11, 0x00000000)  returns 0x00 (0000ms, 0415ms total)
T240C 000:602 JLINK_WriteReg(R12, 0x00000000)  returns 0x00 (0000ms, 0415ms total)
T240C 000:602 JLINK_WriteReg(R13, 0x20000800)  returns 0x00 (0000ms, 0415ms total)
T240C 000:602 JLINK_WriteReg(R14, 0x20000001)  returns 0x00 (0000ms, 0415ms total)
T240C 000:602 JLINK_WriteReg(R15, 0x2000007C)  returns 0x00 (0000ms, 0415ms total)
T240C 000:602 JLINK_WriteReg(XPSR, 0x01000000)  returns 0x00 (0000ms, 0415ms total)
T240C 000:602 JLINK_WriteReg(MSP, 0x20000800)  returns 0x00 (0000ms, 0415ms total)
T240C 000:602 JLINK_WriteReg(PSP, 0x20000800)  returns 0x00 (0000ms, 0415ms total)
T240C 000:602 JLINK_WriteReg(CFBP, 0x00000000)  returns 0x00 (0000ms, 0415ms total)
T240C 000:602 JLINK_SetBPEx(Addr = 0x20000000, Type = 0xFFFFFFF2)  returns 0x00000002 (0000ms, 0415ms total)
T240C 000:602 JLINK_Go() (0005ms, 0420ms total)
T240C 000:607 JLINK_IsHalted()  returns FALSE (0002ms, 0422ms total)
T240C 000:650 JLINK_IsHalted() -- CPU_ReadMem(2 bytes @ 0x20000000)  returns TRUE (0005ms, 0425ms total)
T240C 000:655 JLINK_ReadReg(R15)  returns 0x20000000 (0000ms, 0420ms total)
T240C 000:655 JLINK_ClrBPEx(BPHandle = 0x00000002)  returns 0x00 (0000ms, 0420ms total)
T240C 000:655 JLINK_ReadReg(R0)  returns 0x00000000 (0000ms, 0420ms total)
T240C 000:706 JLINK_WriteReg(R0, 0x00000001)  returns 0x00 (0000ms, 0420ms total)
T240C 000:706 JLINK_WriteReg(R1, 0x007A1200)  returns 0x00 (0000ms, 0420ms total)
T240C 000:706 JLINK_WriteReg(R2, 0x00000001)  returns 0x00 (0000ms, 0420ms total)
T240C 000:707 JLINK_WriteReg(R3, 0x00000000)  returns 0x00 (0000ms, 0420ms total)
T240C 000:707 JLINK_WriteReg(R4, 0x00000000)  returns 0x00 (0000ms, 0420ms total)
T240C 000:707 JLINK_WriteReg(R5, 0x00000000)  returns 0x00 (0000ms, 0420ms total)
T240C 000:707 JLINK_WriteReg(R6, 0x00000000)  returns 0x00 (0000ms, 0420ms total)
T240C 000:707 JLINK_WriteReg(R7, 0x00000000)  returns 0x00 (0000ms, 0420ms total)
T240C 000:707 JLINK_WriteReg(R8, 0x00000000)  returns 0x00 (0000ms, 0420ms total)
T240C 000:707 JLINK_WriteReg(R9, 0x20000160)  returns 0x00 (0000ms, 0420ms total)
T240C 000:707 JLINK_WriteReg(R10, 0x00000000)  returns 0x00 (0000ms, 0420ms total)
T240C 000:707 JLINK_WriteReg(R11, 0x00000000)  returns 0x00 (0000ms, 0420ms total)
T240C 000:707 JLINK_WriteReg(R12, 0x00000000)  returns 0x00 (0000ms, 0420ms total)
T240C 000:707 JLINK_WriteReg(R13, 0x20000800)  returns 0x00 (0000ms, 0420ms total)
T240C 000:707 JLINK_WriteReg(R14, 0x20000001)  returns 0x00 (0000ms, 0420ms total)
T240C 000:707 JLINK_WriteReg(R15, 0x2000006A)  returns 0x00 (0000ms, 0420ms total)
T240C 000:707 JLINK_WriteReg(XPSR, 0x01000000)  returns 0x00 (0000ms, 0420ms total)
T240C 000:707 JLINK_WriteReg(MSP, 0x20000800)  returns 0x00 (0000ms, 0420ms total)
T240C 000:707 JLINK_WriteReg(PSP, 0x20000800)  returns 0x00 (0000ms, 0420ms total)
T240C 000:708 JLINK_WriteReg(CFBP, 0x00000000)  returns 0x00 (0000ms, 0421ms total)
T240C 000:708 JLINK_SetBPEx(Addr = 0x20000000, Type = 0xFFFFFFF2)  returns 0x00000003 (0000ms, 0421ms total)
T240C 000:708 JLINK_Go() (0007ms, 0428ms total)
T240C 000:715 JLINK_IsHalted() -- CPU_ReadMem(2 bytes @ 0x20000000)  returns TRUE (0011ms, 0439ms total)
T240C 000:726 JLINK_ReadReg(R15)  returns 0x20000000 (0000ms, 0428ms total)
T240C 000:726 JLINK_ClrBPEx(BPHandle = 0x00000003)  returns 0x00 (0000ms, 0428ms total)
T240C 000:726 JLINK_ReadReg(R0)  returns 0x00000000 (0000ms, 0428ms total)
T240C 000:738 JLINK_WriteMem(0x20000000, 0x0164 Bytes, ...) -- Data:  00 BE 0A E0 0D 78 2D 06 68 40 08 24 40 00 00 D3 ... -- CPU_WriteMem(356 bytes @ 0x20000000)  returns 0x164 (0004ms, 0432ms total)
T240C 000:742 JLINK_WriteReg(R0, 0x08000000)  returns 0x00 (0000ms, 0432ms total)
T240C 000:742 JLINK_WriteReg(R1, 0x007A1200)  returns 0x00 (0000ms, 0432ms total)
T240C 000:742 JLINK_WriteReg(R2, 0x00000002)  returns 0x00 (0000ms, 0432ms total)
T240C 000:742 JLINK_WriteReg(R3, 0x00000000)  returns 0x00 (0000ms, 0432ms total)
T240C 000:743 JLINK_WriteReg(R4, 0x00000000)  returns 0x00 (0000ms, 0433ms total)
T240C 000:743 JLINK_WriteReg(R5, 0x00000000)  returns 0x00 (0000ms, 0433ms total)
T240C 000:743 JLINK_WriteReg(R6, 0x00000000)  returns 0x00 (0000ms, 0433ms total)
T240C 000:743 JLINK_WriteReg(R7, 0x00000000)  returns 0x00 (0000ms, 0433ms total)
T240C 000:743 JLINK_WriteReg(R8, 0x00000000)  returns 0x00 (0000ms, 0433ms total)
T240C 000:743 JLINK_WriteReg(R9, 0x20000160)  returns 0x00 (0000ms, 0433ms total)
T240C 000:743 JLINK_WriteReg(R10, 0x00000000)  returns 0x00 (0000ms, 0433ms total)
T240C 000:743 JLINK_WriteReg(R11, 0x00000000)  returns 0x00 (0000ms, 0433ms total)
T240C 000:743 JLINK_WriteReg(R12, 0x00000000)  returns 0x00 (0000ms, 0433ms total)
T240C 000:743 JLINK_WriteReg(R13, 0x20000800)  returns 0x00 (0000ms, 0433ms total)
T240C 000:743 JLINK_WriteReg(R14, 0x20000001)  returns 0x00 (0000ms, 0433ms total)
T240C 000:743 JLINK_WriteReg(R15, 0x20000038)  returns 0x00 (0000ms, 0433ms total)
T240C 000:743 JLINK_WriteReg(XPSR, 0x01000000)  returns 0x00 (0000ms, 0433ms total)
T240C 000:743 JLINK_WriteReg(MSP, 0x20000800)  returns 0x00 (0000ms, 0433ms total)
T240C 000:743 JLINK_WriteReg(PSP, 0x20000800)  returns 0x00 (0001ms, 0434ms total)
T240C 000:744 JLINK_WriteReg(CFBP, 0x00000000)  returns 0x00 (0000ms, 0434ms total)
T240C 000:744 JLINK_SetBPEx(Addr = 0x20000000, Type = 0xFFFFFFF2) -- CPU_ReadMem(2 bytes @ 0x20000000)  returns 0x00000004 (0001ms, 0435ms total)
T240C 000:745 JLINK_Go() -- CPU_WriteMem(2 bytes @ 0x20000000) (0007ms, 0442ms total)
T240C 000:752 JLINK_IsHalted() -- CPU_ReadMem(2 bytes @ 0x20000000)  returns TRUE (0008ms, 0450ms total)
T240C 000:760 JLINK_ReadReg(R15)  returns 0x20000000 (0000ms, 0442ms total)
T240C 000:760 JLINK_ClrBPEx(BPHandle = 0x00000004)  returns 0x00 (0000ms, 0442ms total)
T240C 000:760 JLINK_ReadReg(R0)  returns 0x00000000 (0000ms, 0442ms total)
T240C 000:761 JLINK_WriteMem(0x20000164, 0x0400 Bytes, ...) -- Data:  E8 14 00 20 C9 40 00 08 3D 07 00 08 3F 07 00 08 ... -- CPU_WriteMem(1024 bytes @ 0x20000164)  returns 0x400 (0008ms, 0450ms total)
T240C 000:769 JLINK_WriteReg(R0, 0x08000000)  returns 0x00 (0000ms, 0450ms total)
T240C 000:769 JLINK_WriteReg(R1, 0x00000400)  returns 0x00 (0000ms, 0450ms total)
T240C 000:769 JLINK_WriteReg(R2, 0x20000164)  returns 0x00 (0000ms, 0450ms total)
T240C 000:769 JLINK_WriteReg(R3, 0x00000000)  returns 0x00 (0000ms, 0450ms total)
T240C 000:769 JLINK_WriteReg(R4, 0x00000000)  returns 0x00 (0000ms, 0450ms total)
T240C 000:769 JLINK_WriteReg(R5, 0x00000000)  returns 0x00 (0000ms, 0450ms total)
T240C 000:769 JLINK_WriteReg(R6, 0x00000000)  returns 0x00 (0000ms, 0450ms total)
T240C 000:769 JLINK_WriteReg(R7, 0x00000000)  returns 0x00 (0000ms, 0450ms total)
T240C 000:769 JLINK_WriteReg(R8, 0x00000000)  returns 0x00 (0000ms, 0450ms total)
T240C 000:769 JLINK_WriteReg(R9, 0x20000160)  returns 0x00 (0000ms, 0450ms total)
T240C 000:769 JLINK_WriteReg(R10, 0x00000000)  returns 0x00 (0000ms, 0450ms total)
T240C 000:769 JLINK_WriteReg(R11, 0x00000000)  returns 0x00 (0000ms, 0450ms total)
T240C 000:769 JLINK_WriteReg(R12, 0x00000000)  returns 0x00 (0000ms, 0450ms total)
T240C 000:769 JLINK_WriteReg(R13, 0x20000800)  returns 0x00 (0000ms, 0450ms total)
T240C 000:769 JLINK_WriteReg(R14, 0x20000001)  returns 0x00 (0000ms, 0450ms total)
T240C 000:769 JLINK_WriteReg(R15, 0x200000F4)  returns 0x00 (0000ms, 0450ms total)
T240C 000:769 JLINK_WriteReg(XPSR, 0x01000000)  returns 0x00 (0000ms, 0450ms total)
T240C 000:769 JLINK_WriteReg(MSP, 0x20000800)  returns 0x00 (0000ms, 0450ms total)
T240C 000:769 JLINK_WriteReg(PSP, 0x20000800)  returns 0x00 (0000ms, 0450ms total)
T240C 000:769 JLINK_WriteReg(CFBP, 0x00000000)  returns 0x00 (0000ms, 0450ms total)
T240C 000:769 JLINK_SetBPEx(Addr = 0x20000000, Type = 0xFFFFFFF2)  returns 0x00000005 (0000ms, 0450ms total)
T240C 000:769 JLINK_Go() (0004ms, 0454ms total)
T240C 000:773 JLINK_IsHalted()  returns FALSE (0001ms, 0455ms total)
T240C 000:794 JLINK_IsHalted()  returns FALSE (0001ms, 0455ms total)
T240C 000:796 JLINK_IsHalted()  returns FALSE (0001ms, 0455ms total)
T240C 000:798 JLINK_IsHalted()  returns FALSE (0001ms, 0455ms total)
T240C 000:800 JLINK_IsHalted()  returns FALSE (0001ms, 0455ms total)
T240C 000:803 JLINK_IsHalted() -- CPU_ReadMem(2 bytes @ 0x20000000)  returns TRUE (0005ms, 0459ms total)
T240C 000:808 JLINK_ReadReg(R15)  returns 0x20000000 (0000ms, 0454ms total)
T240C 000:808 JLINK_ClrBPEx(BPHandle = 0x00000005)  returns 0x00 (0000ms, 0454ms total)
T240C 000:808 JLINK_ReadReg(R0)  returns 0x00000000 (0000ms, 0454ms total)
T240C 000:808 JLINK_WriteMem(0x20000164, 0x0400 Bytes, ...) -- Data:  0C D1 A6 48 00 88 40 1C C0 EB 80 10 A4 4A 12 68 ... -- CPU_WriteMem(1024 bytes @ 0x20000164)  returns 0x400 (0008ms, 0462ms total)
T240C 000:816 JLINK_WriteReg(R0, 0x08000400)  returns 0x00 (0000ms, 0462ms total)
T240C 000:816 JLINK_WriteReg(R1, 0x00000400)  returns 0x00 (0000ms, 0462ms total)
T240C 000:816 JLINK_WriteReg(R2, 0x20000164)  returns 0x00 (0000ms, 0462ms total)
T240C 000:816 JLINK_WriteReg(R3, 0x00000000)  returns 0x00 (0000ms, 0462ms total)
T240C 000:816 JLINK_WriteReg(R4, 0x00000000)  returns 0x00 (0000ms, 0462ms total)
T240C 000:816 JLINK_WriteReg(R5, 0x00000000)  returns 0x00 (0000ms, 0462ms total)
T240C 000:816 JLINK_WriteReg(R6, 0x00000000)  returns 0x00 (0000ms, 0462ms total)
T240C 000:816 JLINK_WriteReg(R7, 0x00000000)  returns 0x00 (0000ms, 0462ms total)
T240C 000:816 JLINK_WriteReg(R8, 0x00000000)  returns 0x00 (0000ms, 0462ms total)
T240C 000:816 JLINK_WriteReg(R9, 0x20000160)  returns 0x00 (0000ms, 0462ms total)
T240C 000:816 JLINK_WriteReg(R10, 0x00000000)  returns 0x00 (0000ms, 0462ms total)
T240C 000:816 JLINK_WriteReg(R11, 0x00000000)  returns 0x00 (0000ms, 0462ms total)
T240C 000:816 JLINK_WriteReg(R12, 0x00000000)  returns 0x00 (0000ms, 0462ms total)
T240C 000:816 JLINK_WriteReg(R13, 0x20000800)  returns 0x00 (0000ms, 0462ms total)
T240C 000:816 JLINK_WriteReg(R14, 0x20000001)  returns 0x00 (0000ms, 0462ms total)
T240C 000:816 JLINK_WriteReg(R15, 0x200000F4)  returns 0x00 (0000ms, 0462ms total)
T240C 000:816 JLINK_WriteReg(XPSR, 0x01000000)  returns 0x00 (0000ms, 0462ms total)
T240C 000:816 JLINK_WriteReg(MSP, 0x20000800)  returns 0x00 (0000ms, 0462ms total)
T240C 000:816 JLINK_WriteReg(PSP, 0x20000800)  returns 0x00 (0000ms, 0462ms total)
T240C 000:816 JLINK_WriteReg(CFBP, 0x00000000)  returns 0x00 (0000ms, 0462ms total)
T240C 000:816 JLINK_SetBPEx(Addr = 0x20000000, Type = 0xFFFFFFF2)  returns 0x00000006 (0000ms, 0462ms total)
T240C 000:816 JLINK_Go() (0003ms, 0465ms total)
T240C 000:819 JLINK_IsHalted()  returns FALSE (0002ms, 0467ms total)
T240C 000:823 JLINK_IsHalted()  returns FALSE (0001ms, 0466ms total)
T240C 000:825 JLINK_IsHalted()  returns FALSE (0001ms, 0466ms total)
T240C 000:828 JLINK_IsHalted()  returns FALSE (0001ms, 0466ms total)
T240C 000:830 JLINK_IsHalted()  returns FALSE (0001ms, 0466ms total)
T240C 000:832 JLINK_IsHalted()  returns FALSE (0001ms, 0466ms total)
T240C 000:834 JLINK_IsHalted()  returns FALSE (0001ms, 0466ms total)
T240C 000:836 JLINK_IsHalted()  returns FALSE (0001ms, 0466ms total)
T240C 000:838 JLINK_IsHalted()  returns FALSE (0001ms, 0466ms total)
T240C 000:840 JLINK_IsHalted()  returns FALSE (0001ms, 0466ms total)
T240C 000:842 JLINK_IsHalted()  returns FALSE (0001ms, 0466ms total)
T240C 000:844 JLINK_IsHalted()  returns FALSE (0001ms, 0466ms total)
T240C 000:846 JLINK_IsHalted()  returns FALSE (0001ms, 0466ms total)
T240C 000:848 JLINK_IsHalted()  returns FALSE (0001ms, 0466ms total)
T240C 000:850 JLINK_IsHalted()  returns FALSE (0001ms, 0466ms total)
T240C 000:852 JLINK_IsHalted() -- CPU_ReadMem(2 bytes @ 0x20000000)  returns TRUE (0005ms, 0470ms total)
T240C 000:857 JLINK_ReadReg(R15)  returns 0x20000000 (0000ms, 0465ms total)
T240C 000:857 JLINK_ClrBPEx(BPHandle = 0x00000006)  returns 0x00 (0000ms, 0465ms total)
T240C 000:857 JLINK_ReadReg(R0)  returns 0x00000000 (0000ms, 0465ms total)
T240C 000:857 JLINK_WriteMem(0x20000164, 0x0400 Bytes, ...) -- Data:  10 F0 00 7F FA D0 42 48 40 68 20 F0 03 00 40 49 ... -- CPU_WriteMem(1024 bytes @ 0x20000164)  returns 0x400 (0008ms, 0473ms total)
T240C 000:865 JLINK_WriteReg(R0, 0x08000800)  returns 0x00 (0000ms, 0473ms total)
T240C 000:865 JLINK_WriteReg(R1, 0x00000400)  returns 0x00 (0000ms, 0473ms total)
T240C 000:865 JLINK_WriteReg(R2, 0x20000164)  returns 0x00 (0000ms, 0473ms total)
T240C 000:865 JLINK_WriteReg(R3, 0x00000000)  returns 0x00 (0000ms, 0473ms total)
T240C 000:865 JLINK_WriteReg(R4, 0x00000000)  returns 0x00 (0000ms, 0473ms total)
T240C 000:865 JLINK_WriteReg(R5, 0x00000000)  returns 0x00 (0000ms, 0473ms total)
T240C 000:865 JLINK_WriteReg(R6, 0x00000000)  returns 0x00 (0000ms, 0473ms total)
T240C 000:865 JLINK_WriteReg(R7, 0x00000000)  returns 0x00 (0000ms, 0473ms total)
T240C 000:865 JLINK_WriteReg(R8, 0x00000000)  returns 0x00 (0000ms, 0473ms total)
T240C 000:865 JLINK_WriteReg(R9, 0x20000160)  returns 0x00 (0000ms, 0473ms total)
T240C 000:865 JLINK_WriteReg(R10, 0x00000000)  returns 0x00 (0000ms, 0473ms total)
T240C 000:865 JLINK_WriteReg(R11, 0x00000000)  returns 0x00 (0000ms, 0473ms total)
T240C 000:865 JLINK_WriteReg(R12, 0x00000000)  returns 0x00 (0000ms, 0473ms total)
T240C 000:865 JLINK_WriteReg(R13, 0x20000800)  returns 0x00 (0000ms, 0473ms total)
T240C 000:865 JLINK_WriteReg(R14, 0x20000001)  returns 0x00 (0000ms, 0473ms total)
T240C 000:865 JLINK_WriteReg(R15, 0x200000F4)  returns 0x00 (0000ms, 0473ms total)
T240C 000:865 JLINK_WriteReg(XPSR, 0x01000000)  returns 0x00 (0000ms, 0473ms total)
T240C 000:865 JLINK_WriteReg(MSP, 0x20000800)  returns 0x00 (0000ms, 0473ms total)
T240C 000:865 JLINK_WriteReg(PSP, 0x20000800)  returns 0x00 (0000ms, 0473ms total)
T240C 000:865 JLINK_WriteReg(CFBP, 0x00000000)  returns 0x00 (0000ms, 0473ms total)
T240C 000:865 JLINK_SetBPEx(Addr = 0x20000000, Type = 0xFFFFFFF2)  returns 0x00000007 (0000ms, 0473ms total)
T240C 000:865 JLINK_Go() (0003ms, 0476ms total)
T240C 000:868 JLINK_IsHalted()  returns FALSE (0002ms, 0478ms total)
T240C 000:873 JLINK_IsHalted()  returns FALSE (0001ms, 0477ms total)
T240C 000:875 JLINK_IsHalted()  returns FALSE (0001ms, 0477ms total)
T240C 000:877 JLINK_IsHalted()  returns FALSE (0001ms, 0477ms total)
T240C 000:879 JLINK_IsHalted()  returns FALSE (0001ms, 0477ms total)
T240C 000:881 JLINK_IsHalted()  returns FALSE (0002ms, 0478ms total)
T240C 000:885 JLINK_IsHalted()  returns FALSE (0001ms, 0477ms total)
T240C 000:887 JLINK_IsHalted()  returns FALSE (0001ms, 0477ms total)
T240C 000:889 JLINK_IsHalted()  returns FALSE (0001ms, 0477ms total)
T240C 000:891 JLINK_IsHalted()  returns FALSE (0001ms, 0477ms total)
T240C 000:893 JLINK_IsHalted()  returns FALSE (0001ms, 0477ms total)
T240C 000:895 JLINK_IsHalted()  returns FALSE (0001ms, 0477ms total)
T240C 000:897 JLINK_IsHalted()  returns FALSE (0001ms, 0477ms total)
T240C 000:899 JLINK_IsHalted() -- CPU_ReadMem(2 bytes @ 0x20000000)  returns TRUE (0006ms, 0482ms total)
T240C 000:905 JLINK_ReadReg(R15)  returns 0x20000000 (0000ms, 0476ms total)
T240C 000:905 JLINK_ClrBPEx(BPHandle = 0x00000007)  returns 0x00 (0000ms, 0476ms total)
T240C 000:905 JLINK_ReadReg(R0)  returns 0x00000000 (0000ms, 0476ms total)
T240C 000:906 JLINK_WriteMem(0x20000164, 0x0400 Bytes, ...) -- Data:  A0 F5 D0 41 04 39 02 D1 95 48 80 1C 04 88 95 48 ... -- CPU_WriteMem(1024 bytes @ 0x20000164)  returns 0x400 (0008ms, 0484ms total)
T240C 000:914 JLINK_WriteReg(R0, 0x08000C00)  returns 0x00 (0000ms, 0484ms total)
T240C 000:914 JLINK_WriteReg(R1, 0x00000400)  returns 0x00 (0000ms, 0484ms total)
T240C 000:914 JLINK_WriteReg(R2, 0x20000164)  returns 0x00 (0000ms, 0484ms total)
T240C 000:914 JLINK_WriteReg(R3, 0x00000000)  returns 0x00 (0000ms, 0484ms total)
T240C 000:914 JLINK_WriteReg(R4, 0x00000000)  returns 0x00 (0000ms, 0484ms total)
T240C 000:914 JLINK_WriteReg(R5, 0x00000000)  returns 0x00 (0000ms, 0484ms total)
T240C 000:914 JLINK_WriteReg(R6, 0x00000000)  returns 0x00 (0000ms, 0484ms total)
T240C 000:914 JLINK_WriteReg(R7, 0x00000000)  returns 0x00 (0000ms, 0484ms total)
T240C 000:914 JLINK_WriteReg(R8, 0x00000000)  returns 0x00 (0000ms, 0484ms total)
T240C 000:914 JLINK_WriteReg(R9, 0x20000160)  returns 0x00 (0000ms, 0484ms total)
T240C 000:914 JLINK_WriteReg(R10, 0x00000000)  returns 0x00 (0000ms, 0484ms total)
T240C 000:914 JLINK_WriteReg(R11, 0x00000000)  returns 0x00 (0000ms, 0484ms total)
T240C 000:914 JLINK_WriteReg(R12, 0x00000000)  returns 0x00 (0000ms, 0484ms total)
T240C 000:914 JLINK_WriteReg(R13, 0x20000800)  returns 0x00 (0000ms, 0484ms total)
T240C 000:914 JLINK_WriteReg(R14, 0x20000001)  returns 0x00 (0000ms, 0484ms total)
T240C 000:914 JLINK_WriteReg(R15, 0x200000F4)  returns 0x00 (0000ms, 0484ms total)
T240C 000:914 JLINK_WriteReg(XPSR, 0x01000000)  returns 0x00 (0000ms, 0484ms total)
T240C 000:914 JLINK_WriteReg(MSP, 0x20000800)  returns 0x00 (0000ms, 0484ms total)
T240C 000:914 JLINK_WriteReg(PSP, 0x20000800)  returns 0x00 (0000ms, 0484ms total)
T240C 000:914 JLINK_WriteReg(CFBP, 0x00000000)  returns 0x00 (0000ms, 0484ms total)
T240C 000:914 JLINK_SetBPEx(Addr = 0x20000000, Type = 0xFFFFFFF2)  returns 0x00000008 (0000ms, 0484ms total)
T240C 000:914 JLINK_Go() (0003ms, 0487ms total)
T240C 000:917 JLINK_IsHalted()  returns FALSE (0002ms, 0489ms total)
T240C 000:924 JLINK_IsHalted()  returns FALSE (0001ms, 0488ms total)
T240C 000:926 JLINK_IsHalted()  returns FALSE (0001ms, 0488ms total)
T240C 000:929 JLINK_IsHalted()  returns FALSE (0001ms, 0488ms total)
T240C 000:931 JLINK_IsHalted()  returns FALSE (0001ms, 0488ms total)
T240C 000:933 JLINK_IsHalted()  returns FALSE (0001ms, 0488ms total)
T240C 000:935 JLINK_IsHalted()  returns FALSE (0001ms, 0488ms total)
T240C 000:937 JLINK_IsHalted()  returns FALSE (0001ms, 0488ms total)
T240C 000:939 JLINK_IsHalted()  returns FALSE (0001ms, 0488ms total)
T240C 000:941 JLINK_IsHalted()  returns FALSE (0001ms, 0488ms total)
T240C 000:943 JLINK_IsHalted()  returns FALSE (0001ms, 0488ms total)
T240C 000:946 JLINK_IsHalted()  returns FALSE (0001ms, 0488ms total)
T240C 000:948 JLINK_IsHalted() -- CPU_ReadMem(2 bytes @ 0x20000000)  returns TRUE (0005ms, 0492ms total)
T240C 000:953 JLINK_ReadReg(R15)  returns 0x20000000 (0000ms, 0487ms total)
T240C 000:953 JLINK_ClrBPEx(BPHandle = 0x00000008)  returns 0x00 (0000ms, 0487ms total)
T240C 000:953 JLINK_ReadReg(R0)  returns 0x00000000 (0000ms, 0487ms total)
T240C 000:954 JLINK_WriteMem(0x20000164, 0x0400 Bytes, ...) -- Data:  22 20 9B 49 C8 71 4F 20 08 72 4E 20 48 72 06 E0 ... -- CPU_WriteMem(1024 bytes @ 0x20000164)  returns 0x400 (0007ms, 0494ms total)
T240C 000:961 JLINK_WriteReg(R0, 0x08001000)  returns 0x00 (0000ms, 0494ms total)
T240C 000:961 JLINK_WriteReg(R1, 0x00000400)  returns 0x00 (0000ms, 0494ms total)
T240C 000:961 JLINK_WriteReg(R2, 0x20000164)  returns 0x00 (0000ms, 0494ms total)
T240C 000:961 JLINK_WriteReg(R3, 0x00000000)  returns 0x00 (0000ms, 0494ms total)
T240C 000:961 JLINK_WriteReg(R4, 0x00000000)  returns 0x00 (0000ms, 0494ms total)
T240C 000:961 JLINK_WriteReg(R5, 0x00000000)  returns 0x00 (0000ms, 0494ms total)
T240C 000:961 JLINK_WriteReg(R6, 0x00000000)  returns 0x00 (0000ms, 0494ms total)
T240C 000:961 JLINK_WriteReg(R7, 0x00000000)  returns 0x00 (0000ms, 0494ms total)
T240C 000:961 JLINK_WriteReg(R8, 0x00000000)  returns 0x00 (0000ms, 0494ms total)
T240C 000:961 JLINK_WriteReg(R9, 0x20000160)  returns 0x00 (0000ms, 0494ms total)
T240C 000:961 JLINK_WriteReg(R10, 0x00000000)  returns 0x00 (0000ms, 0494ms total)
T240C 000:961 JLINK_WriteReg(R11, 0x00000000)  returns 0x00 (0000ms, 0494ms total)
T240C 000:961 JLINK_WriteReg(R12, 0x00000000)  returns 0x00 (0000ms, 0494ms total)
T240C 000:961 JLINK_WriteReg(R13, 0x20000800)  returns 0x00 (0000ms, 0494ms total)
T240C 000:961 JLINK_WriteReg(R14, 0x20000001)  returns 0x00 (0000ms, 0494ms total)
T240C 000:961 JLINK_WriteReg(R15, 0x200000F4)  returns 0x00 (0000ms, 0494ms total)
T240C 000:961 JLINK_WriteReg(XPSR, 0x01000000)  returns 0x00 (0000ms, 0494ms total)
T240C 000:961 JLINK_WriteReg(MSP, 0x20000800)  returns 0x00 (0000ms, 0494ms total)
T240C 000:961 JLINK_WriteReg(PSP, 0x20000800)  returns 0x00 (0000ms, 0494ms total)
T240C 000:961 JLINK_WriteReg(CFBP, 0x00000000)  returns 0x00 (0001ms, 0495ms total)
T240C 000:962 JLINK_SetBPEx(Addr = 0x20000000, Type = 0xFFFFFFF2)  returns 0x00000009 (0000ms, 0495ms total)
T240C 000:962 JLINK_Go() (0003ms, 0498ms total)
T240C 000:965 JLINK_IsHalted()  returns FALSE (0001ms, 0499ms total)
T240C 000:968 JLINK_IsHalted()  returns FALSE (0001ms, 0499ms total)
T240C 000:970 JLINK_IsHalted()  returns FALSE (0001ms, 0499ms total)
T240C 000:972 JLINK_IsHalted()  returns FALSE (0001ms, 0499ms total)
T240C 000:974 JLINK_IsHalted()  returns FALSE (0001ms, 0499ms total)
T240C 000:977 JLINK_IsHalted()  returns FALSE (0001ms, 0499ms total)
T240C 000:979 JLINK_IsHalted()  returns FALSE (0001ms, 0499ms total)
T240C 000:981 JLINK_IsHalted()  returns FALSE (0001ms, 0499ms total)
T240C 000:983 JLINK_IsHalted()  returns FALSE (0001ms, 0499ms total)
T240C 000:985 JLINK_IsHalted()  returns FALSE (0001ms, 0499ms total)
T240C 000:987 JLINK_IsHalted()  returns FALSE (0001ms, 0499ms total)
T240C 000:989 JLINK_IsHalted()  returns FALSE (0001ms, 0499ms total)
T240C 000:992 JLINK_IsHalted()  returns FALSE (0001ms, 0499ms total)
T240C 000:994 JLINK_IsHalted()  returns FALSE (0001ms, 0499ms total)
T240C 000:996 JLINK_IsHalted() -- CPU_ReadMem(2 bytes @ 0x20000000)  returns TRUE (0005ms, 0503ms total)
T240C 001:001 JLINK_ReadReg(R15)  returns 0x20000000 (0001ms, 0499ms total)
T240C 001:002 JLINK_ClrBPEx(BPHandle = 0x00000009)  returns 0x00 (0000ms, 0499ms total)
T240C 001:002 JLINK_ReadReg(R0)  returns 0x00000000 (0000ms, 0499ms total)
T240C 001:003 JLINK_WriteMem(0x20000164, 0x0400 Bytes, ...) -- Data:  FF F7 3F FB 0F 20 FF F7 3C FB 3F 20 FF F7 39 FB ... -- CPU_WriteMem(1024 bytes @ 0x20000164)  returns 0x400 (0007ms, 0506ms total)
T240C 001:010 JLINK_WriteReg(R0, 0x08001400)  returns 0x00 (0000ms, 0506ms total)
T240C 001:011 JLINK_WriteReg(R1, 0x00000400)  returns 0x00 (0000ms, 0507ms total)
T240C 001:011 JLINK_WriteReg(R2, 0x20000164)  returns 0x00 (0000ms, 0507ms total)
T240C 001:011 JLINK_WriteReg(R3, 0x00000000)  returns 0x00 (0000ms, 0507ms total)
T240C 001:011 JLINK_WriteReg(R4, 0x00000000)  returns 0x00 (0000ms, 0507ms total)
T240C 001:011 JLINK_WriteReg(R5, 0x00000000)  returns 0x00 (0000ms, 0507ms total)
T240C 001:011 JLINK_WriteReg(R6, 0x00000000)  returns 0x00 (0000ms, 0507ms total)
T240C 001:011 JLINK_WriteReg(R7, 0x00000000)  returns 0x00 (0000ms, 0507ms total)
T240C 001:011 JLINK_WriteReg(R8, 0x00000000)  returns 0x00 (0000ms, 0507ms total)
T240C 001:011 JLINK_WriteReg(R9, 0x20000160)  returns 0x00 (0000ms, 0507ms total)
T240C 001:011 JLINK_WriteReg(R10, 0x00000000)  returns 0x00 (0000ms, 0507ms total)
T240C 001:011 JLINK_WriteReg(R11, 0x00000000)  returns 0x00 (0000ms, 0507ms total)
T240C 001:011 JLINK_WriteReg(R12, 0x00000000)  returns 0x00 (0000ms, 0507ms total)
T240C 001:011 JLINK_WriteReg(R13, 0x20000800)  returns 0x00 (0000ms, 0507ms total)
T240C 001:011 JLINK_WriteReg(R14, 0x20000001)  returns 0x00 (0000ms, 0507ms total)
T240C 001:011 JLINK_WriteReg(R15, 0x200000F4)  returns 0x00 (0000ms, 0507ms total)
T240C 001:011 JLINK_WriteReg(XPSR, 0x01000000)  returns 0x00 (0000ms, 0507ms total)
T240C 001:011 JLINK_WriteReg(MSP, 0x20000800)  returns 0x00 (0000ms, 0507ms total)
T240C 001:011 JLINK_WriteReg(PSP, 0x20000800)  returns 0x00 (0000ms, 0507ms total)
T240C 001:011 JLINK_WriteReg(CFBP, 0x00000000)  returns 0x00 (0000ms, 0507ms total)
T240C 001:011 JLINK_SetBPEx(Addr = 0x20000000, Type = 0xFFFFFFF2)  returns 0x0000000A (0000ms, 0507ms total)
T240C 001:011 JLINK_Go() (0003ms, 0510ms total)
T240C 001:014 JLINK_IsHalted()  returns FALSE (0002ms, 0512ms total)
T240C 001:021 JLINK_IsHalted()  returns FALSE (0001ms, 0511ms total)
T240C 001:024 JLINK_IsHalted()  returns FALSE (0001ms, 0511ms total)
T240C 001:026 JLINK_IsHalted()  returns FALSE (0001ms, 0511ms total)
T240C 001:028 JLINK_IsHalted()  returns FALSE (0001ms, 0511ms total)
T240C 001:030 JLINK_IsHalted()  returns FALSE (0001ms, 0511ms total)
T240C 001:032 JLINK_IsHalted()  returns FALSE (0001ms, 0511ms total)
T240C 001:034 JLINK_IsHalted()  returns FALSE (0001ms, 0511ms total)
T240C 001:036 JLINK_IsHalted()  returns FALSE (0001ms, 0511ms total)
T240C 001:039 JLINK_IsHalted()  returns FALSE (0001ms, 0511ms total)
T240C 001:041 JLINK_IsHalted()  returns FALSE (0001ms, 0511ms total)
T240C 001:043 JLINK_IsHalted()  returns FALSE (0001ms, 0511ms total)
T240C 001:045 JLINK_IsHalted() -- CPU_ReadMem(2 bytes @ 0x20000000)  returns TRUE (0005ms, 0515ms total)
T240C 001:050 JLINK_ReadReg(R15)  returns 0x20000000 (0000ms, 0510ms total)
T240C 001:050 JLINK_ClrBPEx(BPHandle = 0x0000000A)  returns 0x00 (0000ms, 0510ms total)
T240C 001:050 JLINK_ReadReg(R0)  returns 0x00000000 (0001ms, 0511ms total)
T240C 001:051 JLINK_WriteMem(0x20000164, 0x0400 Bytes, ...) -- Data:  FF F7 47 F9 00 21 10 20 FF F7 43 F9 07 21 11 20 ... -- CPU_WriteMem(1024 bytes @ 0x20000164)  returns 0x400 (0007ms, 0518ms total)
T240C 001:058 JLINK_WriteReg(R0, 0x08001800)  returns 0x00 (0000ms, 0518ms total)
T240C 001:058 JLINK_WriteReg(R1, 0x00000400)  returns 0x00 (0001ms, 0519ms total)
T240C 001:059 JLINK_WriteReg(R2, 0x20000164)  returns 0x00 (0000ms, 0519ms total)
T240C 001:059 JLINK_WriteReg(R3, 0x00000000)  returns 0x00 (0000ms, 0519ms total)
T240C 001:059 JLINK_WriteReg(R4, 0x00000000)  returns 0x00 (0000ms, 0519ms total)
T240C 001:059 JLINK_WriteReg(R5, 0x00000000)  returns 0x00 (0000ms, 0519ms total)
T240C 001:059 JLINK_WriteReg(R6, 0x00000000)  returns 0x00 (0000ms, 0519ms total)
T240C 001:059 JLINK_WriteReg(R7, 0x00000000)  returns 0x00 (0000ms, 0519ms total)
T240C 001:059 JLINK_WriteReg(R8, 0x00000000)  returns 0x00 (0000ms, 0519ms total)
T240C 001:059 JLINK_WriteReg(R9, 0x20000160)  returns 0x00 (0000ms, 0519ms total)
T240C 001:059 JLINK_WriteReg(R10, 0x00000000)  returns 0x00 (0000ms, 0519ms total)
T240C 001:059 JLINK_WriteReg(R11, 0x00000000)  returns 0x00 (0000ms, 0519ms total)
T240C 001:059 JLINK_WriteReg(R12, 0x00000000)  returns 0x00 (0000ms, 0519ms total)
T240C 001:059 JLINK_WriteReg(R13, 0x20000800)  returns 0x00 (0000ms, 0519ms total)
T240C 001:059 JLINK_WriteReg(R14, 0x20000001)  returns 0x00 (0000ms, 0519ms total)
T240C 001:059 JLINK_WriteReg(R15, 0x200000F4)  returns 0x00 (0000ms, 0519ms total)
T240C 001:059 JLINK_WriteReg(XPSR, 0x01000000)  returns 0x00 (0000ms, 0519ms total)
T240C 001:059 JLINK_WriteReg(MSP, 0x20000800)  returns 0x00 (0000ms, 0519ms total)
T240C 001:059 JLINK_WriteReg(PSP, 0x20000800)  returns 0x00 (0000ms, 0519ms total)
T240C 001:059 JLINK_WriteReg(CFBP, 0x00000000)  returns 0x00 (0000ms, 0519ms total)
T240C 001:059 JLINK_SetBPEx(Addr = 0x20000000, Type = 0xFFFFFFF2)  returns 0x0000000B (0000ms, 0519ms total)
T240C 001:059 JLINK_Go() (0003ms, 0522ms total)
T240C 001:062 JLINK_IsHalted()  returns FALSE (0001ms, 0523ms total)
T240C 001:064 JLINK_IsHalted()  returns FALSE (0001ms, 0523ms total)
T240C 001:066 JLINK_IsHalted()  returns FALSE (0001ms, 0523ms total)
T240C 001:068 JLINK_IsHalted()  returns FALSE (0001ms, 0523ms total)
T240C 001:072 JLINK_IsHalted()  returns FALSE (0001ms, 0523ms total)
T240C 001:074 JLINK_IsHalted()  returns FALSE (0001ms, 0523ms total)
T240C 001:076 JLINK_IsHalted()  returns FALSE (0001ms, 0523ms total)
T240C 001:078 JLINK_IsHalted()  returns FALSE (0001ms, 0523ms total)
T240C 001:080 JLINK_IsHalted()  returns FALSE (0001ms, 0523ms total)
T240C 001:082 JLINK_IsHalted()  returns FALSE (0002ms, 0524ms total)
T240C 001:086 JLINK_IsHalted()  returns FALSE (0001ms, 0523ms total)
T240C 001:088 JLINK_IsHalted()  returns FALSE (0001ms, 0523ms total)
T240C 001:090 JLINK_IsHalted()  returns FALSE (0001ms, 0523ms total)
T240C 001:092 JLINK_IsHalted() -- CPU_ReadMem(2 bytes @ 0x20000000)  returns TRUE (0006ms, 0528ms total)
T240C 001:098 JLINK_ReadReg(R15)  returns 0x20000000 (0000ms, 0522ms total)
T240C 001:098 JLINK_ClrBPEx(BPHandle = 0x0000000B)  returns 0x00 (0000ms, 0522ms total)
T240C 001:098 JLINK_ReadReg(R0)  returns 0x00000000 (0000ms, 0522ms total)
T240C 001:098 JLINK_WriteMem(0x20000164, 0x0400 Bytes, ...) -- Data:  FE F7 47 FF 40 F2 07 71 37 20 FE F7 42 FF 4F F4 ... -- CPU_WriteMem(1024 bytes @ 0x20000164)  returns 0x400 (0008ms, 0530ms total)
T240C 001:106 JLINK_WriteReg(R0, 0x08001C00)  returns 0x00 (0000ms, 0530ms total)
T240C 001:106 JLINK_WriteReg(R1, 0x00000400)  returns 0x00 (0000ms, 0530ms total)
T240C 001:106 JLINK_WriteReg(R2, 0x20000164)  returns 0x00 (0000ms, 0530ms total)
T240C 001:106 JLINK_WriteReg(R3, 0x00000000)  returns 0x00 (0000ms, 0530ms total)
T240C 001:106 JLINK_WriteReg(R4, 0x00000000)  returns 0x00 (0000ms, 0530ms total)
T240C 001:106 JLINK_WriteReg(R5, 0x00000000)  returns 0x00 (0000ms, 0530ms total)
T240C 001:106 JLINK_WriteReg(R6, 0x00000000)  returns 0x00 (0000ms, 0530ms total)
T240C 001:106 JLINK_WriteReg(R7, 0x00000000)  returns 0x00 (0000ms, 0530ms total)
T240C 001:106 JLINK_WriteReg(R8, 0x00000000)  returns 0x00 (0000ms, 0530ms total)
T240C 001:106 JLINK_WriteReg(R9, 0x20000160)  returns 0x00 (0000ms, 0530ms total)
T240C 001:106 JLINK_WriteReg(R10, 0x00000000)  returns 0x00 (0000ms, 0530ms total)
T240C 001:106 JLINK_WriteReg(R11, 0x00000000)  returns 0x00 (0000ms, 0530ms total)
T240C 001:106 JLINK_WriteReg(R12, 0x00000000)  returns 0x00 (0000ms, 0530ms total)
T240C 001:106 JLINK_WriteReg(R13, 0x20000800)  returns 0x00 (0000ms, 0530ms total)
T240C 001:106 JLINK_WriteReg(R14, 0x20000001)  returns 0x00 (0000ms, 0530ms total)
T240C 001:106 JLINK_WriteReg(R15, 0x200000F4)  returns 0x00 (0000ms, 0530ms total)
T240C 001:106 JLINK_WriteReg(XPSR, 0x01000000)  returns 0x00 (0000ms, 0530ms total)
T240C 001:106 JLINK_WriteReg(MSP, 0x20000800)  returns 0x00 (0000ms, 0530ms total)
T240C 001:106 JLINK_WriteReg(PSP, 0x20000800)  returns 0x00 (0000ms, 0530ms total)
T240C 001:106 JLINK_WriteReg(CFBP, 0x00000000)  returns 0x00 (0000ms, 0530ms total)
T240C 001:106 JLINK_SetBPEx(Addr = 0x20000000, Type = 0xFFFFFFF2)  returns 0x0000000C (0000ms, 0530ms total)
T240C 001:106 JLINK_Go() (0004ms, 0534ms total)
T240C 001:110 JLINK_IsHalted()  returns FALSE (0002ms, 0536ms total)
T240C 001:118 JLINK_IsHalted()  returns FALSE (0001ms, 0535ms total)
T240C 001:120 JLINK_IsHalted()  returns FALSE (0001ms, 0535ms total)
T240C 001:122 JLINK_IsHalted()  returns FALSE (0001ms, 0535ms total)
T240C 001:124 JLINK_IsHalted()  returns FALSE (0001ms, 0535ms total)
T240C 001:126 JLINK_IsHalted()  returns FALSE (0001ms, 0535ms total)
T240C 001:128 JLINK_IsHalted()  returns FALSE (0001ms, 0535ms total)
T240C 001:130 JLINK_IsHalted()  returns FALSE (0001ms, 0535ms total)
T240C 001:135 JLINK_IsHalted()  returns FALSE (0001ms, 0535ms total)
T240C 001:137 JLINK_IsHalted()  returns FALSE (0001ms, 0535ms total)
T240C 001:139 JLINK_IsHalted()  returns FALSE (0001ms, 0535ms total)
T240C 001:141 JLINK_IsHalted() -- CPU_ReadMem(2 bytes @ 0x20000000)  returns TRUE (0006ms, 0540ms total)
T240C 001:147 JLINK_ReadReg(R15)  returns 0x20000000 (0000ms, 0534ms total)
T240C 001:147 JLINK_ClrBPEx(BPHandle = 0x0000000C)  returns 0x00 (0000ms, 0534ms total)
T240C 001:147 JLINK_ReadReg(R0)  returns 0x00000000 (0000ms, 0534ms total)
T240C 001:147 JLINK_WriteMem(0x20000164, 0x0400 Bytes, ...) -- Data:  48 FD 00 21 0C 20 FE F7 44 FD 00 21 0F 20 FE F7 ... -- CPU_WriteMem(1024 bytes @ 0x20000164)  returns 0x400 (0008ms, 0542ms total)
T240C 001:155 JLINK_WriteReg(R0, 0x08002000)  returns 0x00 (0000ms, 0542ms total)
T240C 001:155 JLINK_WriteReg(R1, 0x00000400)  returns 0x00 (0000ms, 0542ms total)
T240C 001:155 JLINK_WriteReg(R2, 0x20000164)  returns 0x00 (0000ms, 0542ms total)
T240C 001:155 JLINK_WriteReg(R3, 0x00000000)  returns 0x00 (0000ms, 0542ms total)
T240C 001:155 JLINK_WriteReg(R4, 0x00000000)  returns 0x00 (0000ms, 0542ms total)
T240C 001:155 JLINK_WriteReg(R5, 0x00000000)  returns 0x00 (0000ms, 0542ms total)
T240C 001:155 JLINK_WriteReg(R6, 0x00000000)  returns 0x00 (0000ms, 0542ms total)
T240C 001:155 JLINK_WriteReg(R7, 0x00000000)  returns 0x00 (0000ms, 0542ms total)
T240C 001:155 JLINK_WriteReg(R8, 0x00000000)  returns 0x00 (0000ms, 0542ms total)
T240C 001:155 JLINK_WriteReg(R9, 0x20000160)  returns 0x00 (0000ms, 0542ms total)
T240C 001:155 JLINK_WriteReg(R10, 0x00000000)  returns 0x00 (0000ms, 0542ms total)
T240C 001:155 JLINK_WriteReg(R11, 0x00000000)  returns 0x00 (0000ms, 0542ms total)
T240C 001:155 JLINK_WriteReg(R12, 0x00000000)  returns 0x00 (0000ms, 0542ms total)
T240C 001:155 JLINK_WriteReg(R13, 0x20000800)  returns 0x00 (0000ms, 0542ms total)
T240C 001:155 JLINK_WriteReg(R14, 0x20000001)  returns 0x00 (0000ms, 0542ms total)
T240C 001:155 JLINK_WriteReg(R15, 0x200000F4)  returns 0x00 (0000ms, 0542ms total)
T240C 001:155 JLINK_WriteReg(XPSR, 0x01000000)  returns 0x00 (0000ms, 0542ms total)
T240C 001:156 JLINK_WriteReg(MSP, 0x20000800)  returns 0x00 (0000ms, 0543ms total)
T240C 001:156 JLINK_WriteReg(PSP, 0x20000800)  returns 0x00 (0000ms, 0543ms total)
T240C 001:156 JLINK_WriteReg(CFBP, 0x00000000)  returns 0x00 (0000ms, 0543ms total)
T240C 001:156 JLINK_SetBPEx(Addr = 0x20000000, Type = 0xFFFFFFF2)  returns 0x0000000D (0000ms, 0543ms total)
T240C 001:156 JLINK_Go() (0003ms, 0546ms total)
T240C 001:159 JLINK_IsHalted()  returns FALSE (0003ms, 0549ms total)
T240C 001:164 JLINK_IsHalted()  returns FALSE (0002ms, 0548ms total)
T240C 001:167 JLINK_IsHalted()  returns FALSE (0001ms, 0547ms total)
T240C 001:169 JLINK_IsHalted()  returns FALSE (0001ms, 0547ms total)
T240C 001:171 JLINK_IsHalted()  returns FALSE (0001ms, 0547ms total)
T240C 001:173 JLINK_IsHalted()  returns FALSE (0001ms, 0547ms total)
T240C 001:175 JLINK_IsHalted()  returns FALSE (0002ms, 0548ms total)
T240C 001:180 JLINK_IsHalted()  returns FALSE (0001ms, 0547ms total)
T240C 001:182 JLINK_IsHalted()  returns FALSE (0001ms, 0547ms total)
T240C 001:184 JLINK_IsHalted()  returns FALSE (0001ms, 0547ms total)
T240C 001:186 JLINK_IsHalted()  returns FALSE (0001ms, 0547ms total)
T240C 001:188 JLINK_IsHalted()  returns FALSE (0001ms, 0547ms total)
T240C 001:190 JLINK_IsHalted() -- CPU_ReadMem(2 bytes @ 0x20000000)  returns TRUE (0020ms, 0566ms total)
T240C 001:210 JLINK_ReadReg(R15)  returns 0x20000000 (0000ms, 0546ms total)
T240C 001:210 JLINK_ClrBPEx(BPHandle = 0x0000000D)  returns 0x00 (0000ms, 0546ms total)
T240C 001:210 JLINK_ReadReg(R0)  returns 0x00000000 (0000ms, 0546ms total)
T240C 001:210 JLINK_WriteMem(0x20000164, 0x0400 Bytes, ...) -- Data:  05 21 93 20 FE F7 45 FB 4F F4 80 71 07 20 FE F7 ... -- CPU_WriteMem(1024 bytes @ 0x20000164)  returns 0x400 (0013ms, 0559ms total)
T240C 001:223 JLINK_WriteReg(R0, 0x08002400)  returns 0x00 (0000ms, 0559ms total)
T240C 001:223 JLINK_WriteReg(R1, 0x00000400)  returns 0x00 (0000ms, 0559ms total)
T240C 001:223 JLINK_WriteReg(R2, 0x20000164)  returns 0x00 (0000ms, 0559ms total)
T240C 001:223 JLINK_WriteReg(R3, 0x00000000)  returns 0x00 (0000ms, 0559ms total)
T240C 001:223 JLINK_WriteReg(R4, 0x00000000)  returns 0x00 (0000ms, 0559ms total)
T240C 001:223 JLINK_WriteReg(R5, 0x00000000)  returns 0x00 (0000ms, 0559ms total)
T240C 001:223 JLINK_WriteReg(R6, 0x00000000)  returns 0x00 (0000ms, 0559ms total)
T240C 001:223 JLINK_WriteReg(R7, 0x00000000)  returns 0x00 (0000ms, 0559ms total)
T240C 001:223 JLINK_WriteReg(R8, 0x00000000)  returns 0x00 (0000ms, 0559ms total)
T240C 001:223 JLINK_WriteReg(R9, 0x20000160)  returns 0x00 (0000ms, 0559ms total)
T240C 001:223 JLINK_WriteReg(R10, 0x00000000)  returns 0x00 (0000ms, 0559ms total)
T240C 001:223 JLINK_WriteReg(R11, 0x00000000)  returns 0x00 (0000ms, 0559ms total)
T240C 001:223 JLINK_WriteReg(R12, 0x00000000)  returns 0x00 (0000ms, 0559ms total)
T240C 001:223 JLINK_WriteReg(R13, 0x20000800)  returns 0x00 (0000ms, 0559ms total)
T240C 001:223 JLINK_WriteReg(R14, 0x20000001)  returns 0x00 (0000ms, 0559ms total)
T240C 001:223 JLINK_WriteReg(R15, 0x200000F4)  returns 0x00 (0000ms, 0559ms total)
T240C 001:223 JLINK_WriteReg(XPSR, 0x01000000)  returns 0x00 (0000ms, 0559ms total)
T240C 001:223 JLINK_WriteReg(MSP, 0x20000800)  returns 0x00 (0000ms, 0559ms total)
T240C 001:223 JLINK_WriteReg(PSP, 0x20000800)  returns 0x00 (0000ms, 0559ms total)
T240C 001:223 JLINK_WriteReg(CFBP, 0x00000000)  returns 0x00 (0000ms, 0559ms total)
T240C 001:223 JLINK_SetBPEx(Addr = 0x20000000, Type = 0xFFFFFFF2)  returns 0x0000000E (0001ms, 0560ms total)
T240C 001:224 JLINK_Go() (0005ms, 0565ms total)
T240C 001:229 JLINK_IsHalted()  returns FALSE (0002ms, 0567ms total)
T240C 001:241 JLINK_IsHalted()  returns FALSE (0001ms, 0566ms total)
T240C 001:248 JLINK_IsHalted()  returns FALSE (0001ms, 0566ms total)
T240C 001:250 JLINK_IsHalted()  returns FALSE (0001ms, 0566ms total)
T240C 001:252 JLINK_IsHalted()  returns FALSE (0001ms, 0566ms total)
T240C 001:254 JLINK_IsHalted()  returns FALSE (0003ms, 0568ms total)
T240C 001:259 JLINK_IsHalted()  returns FALSE (0001ms, 0566ms total)
T240C 001:261 JLINK_IsHalted() -- CPU_ReadMem(2 bytes @ 0x20000000)  returns TRUE (0005ms, 0570ms total)
T240C 001:266 JLINK_ReadReg(R15)  returns 0x20000000 (0000ms, 0565ms total)
T240C 001:266 JLINK_ClrBPEx(BPHandle = 0x0000000E)  returns 0x00 (0000ms, 0565ms total)
T240C 001:266 JLINK_ReadReg(R0)  returns 0x00000000 (0000ms, 0565ms total)
T240C 001:267 JLINK_WriteMem(0x20000164, 0x0400 Bytes, ...) -- Data:  FE F7 47 F9 41 F2 30 01 03 20 FE F7 42 F9 40 F6 ... -- CPU_WriteMem(1024 bytes @ 0x20000164)  returns 0x400 (0008ms, 0573ms total)
T240C 001:275 JLINK_WriteReg(R0, 0x08002800)  returns 0x00 (0000ms, 0573ms total)
T240C 001:275 JLINK_WriteReg(R1, 0x00000400)  returns 0x00 (0000ms, 0573ms total)
T240C 001:275 JLINK_WriteReg(R2, 0x20000164)  returns 0x00 (0000ms, 0573ms total)
T240C 001:275 JLINK_WriteReg(R3, 0x00000000)  returns 0x00 (0000ms, 0573ms total)
T240C 001:275 JLINK_WriteReg(R4, 0x00000000)  returns 0x00 (0000ms, 0573ms total)
T240C 001:275 JLINK_WriteReg(R5, 0x00000000)  returns 0x00 (0000ms, 0573ms total)
T240C 001:275 JLINK_WriteReg(R6, 0x00000000)  returns 0x00 (0000ms, 0573ms total)
T240C 001:275 JLINK_WriteReg(R7, 0x00000000)  returns 0x00 (0000ms, 0573ms total)
T240C 001:275 JLINK_WriteReg(R8, 0x00000000)  returns 0x00 (0000ms, 0573ms total)
T240C 001:275 JLINK_WriteReg(R9, 0x20000160)  returns 0x00 (0000ms, 0573ms total)
T240C 001:275 JLINK_WriteReg(R10, 0x00000000)  returns 0x00 (0000ms, 0573ms total)
T240C 001:275 JLINK_WriteReg(R11, 0x00000000)  returns 0x00 (0000ms, 0573ms total)
T240C 001:275 JLINK_WriteReg(R12, 0x00000000)  returns 0x00 (0000ms, 0573ms total)
T240C 001:275 JLINK_WriteReg(R13, 0x20000800)  returns 0x00 (0000ms, 0573ms total)
T240C 001:275 JLINK_WriteReg(R14, 0x20000001)  returns 0x00 (0000ms, 0573ms total)
T240C 001:275 JLINK_WriteReg(R15, 0x200000F4)  returns 0x00 (0000ms, 0573ms total)
T240C 001:275 JLINK_WriteReg(XPSR, 0x01000000)  returns 0x00 (0000ms, 0573ms total)
T240C 001:275 JLINK_WriteReg(MSP, 0x20000800)  returns 0x00 (0000ms, 0573ms total)
T240C 001:275 JLINK_WriteReg(PSP, 0x20000800)  returns 0x00 (0000ms, 0573ms total)
T240C 001:275 JLINK_WriteReg(CFBP, 0x00000000)  returns 0x00 (0000ms, 0573ms total)
T240C 001:275 JLINK_SetBPEx(Addr = 0x20000000, Type = 0xFFFFFFF2)  returns 0x0000000F (0000ms, 0573ms total)
T240C 001:275 JLINK_Go() (0003ms, 0576ms total)
T240C 001:278 JLINK_IsHalted()  returns FALSE (0001ms, 0577ms total)
T240C 001:280 JLINK_IsHalted()  returns FALSE (0001ms, 0577ms total)
T240C 001:282 JLINK_IsHalted()  returns FALSE (0001ms, 0577ms total)
